
T2600 000:275 SEGGER J-Link V5.12 Log File (0000ms, 0266ms total)
T2600 000:275 DLL Compiled: Mar 30 2016 17:28:31 (0000ms, 0266ms total)
T2600 000:275 Logging started @ 2016-12-21 16:42 (0000ms, 0266ms total)
T2600 000:275 JLINK_SetWarnOutHandler(...) (0000ms, 0266ms total)
T2600 000:275 JLINK_OpenEx(...)
Firmware: J-Link OB-SAM3U128-V2-NordicSemi compiled Mar 15 2016 18:03:17
Hardware: V1.00
S/N: 681619660  returns O.K. (0263ms, 0529ms total)
T2600 000:538 JLINK_SetErrorOutHandler(...) (0000ms, 0529ms total)
T2600 000:538 JLINK_ExecCommand("ProjectFile = "D:\Users\pavut.wong\WorkSpace\nRF51_SDK_9.0.0_2e23562_1\examples\dtm\direct_test_mode\pca10028\s110\arm4\JLinkSettings.ini"", ...)  returns 0x00 (0003ms, 0532ms total)
T2600 000:541 JLINK_ExecCommand("Device = nRF51422_xxAC", ...)Device "NRF51422_XXAC" selected.  returns 0x00 (0003ms, 0535ms total)
T2600 000:544 JLINK_ExecCommand("DisableConnectionTimeout", ...)  returns 0x01 (0000ms, 0535ms total)
T2600 000:544 JLINK_GetHardwareVersion()  returns 0x2710 (0000ms, 0535ms total)
T2600 000:544 JLINK_GetDLLVersion()  returns 51200 (0000ms, 0535ms total)
T2600 000:544 JLINK_GetFirmwareString(...) (0000ms, 0535ms total)
T2600 000:548 JLINK_GetDLLVersion()  returns 51200 (0000ms, 0535ms total)
T2600 000:548 JLINK_GetCompileDateTime() (0000ms, 0535ms total)
T2600 000:549 JLINK_GetFirmwareString(...) (0000ms, 0535ms total)
T2600 000:551 JLINK_GetHardwareVersion()  returns 0x2710 (0000ms, 0535ms total)
T2600 000:557 JLINK_TIF_Select(JLINKARM_TIF_SWD)  returns 0x00 (0003ms, 0538ms total)
T2600 000:560 JLINK_SetSpeed(5000) (0001ms, 0539ms total)
T2600 000:561 JLINK_GetId() >0x108 TIF>Found SWD-DP with ID 0x0BB11477 >0x0D TIF> >0x28 TIF> >0x0D TIF> >0x28 TIF> >0x0D TIF> >0x28 TIF> >0x0D TIF> >0x28 TIF> >0x35 TIF> >0x0D TIF> >0x28 TIF> >0x0D TIF> >0x28 TIF> >0x35 TIF> >0x35 TIF> >0x35 TIF> >0x0D TIF> >0x28 TIF> >0x0D TIF> >0x28 TIF> >0x0D TIF> >0x28 TIF> >0x35 TIF> >0x35 TIF> >0x0D TIF> >0x28 TIF> >0x35 TIF> >0x35 TIF>Found Cortex-M0 r0p0, Little endian. -- CPU_ReadMem(4 bytes @ 0xE000EDF0) -- CPU_ReadMem(4 bytes @ 0xE0002000)
FPUnit: 4 code (BP) slots and 0 literal slots -- CPU_ReadMem(4 bytes @ 0xE000EDFC) -- CPU_ReadMem(4 bytes @ 0xE0001000) -- CPU_WriteMem(4 bytes @ 0xE0001000)CoreSight components:ROMTbl 0 @ F0000000 -- CPU_ReadMem(16 bytes @ 0xF0000000) -- CPU_ReadMem(16 bytes @ 0xE00FFFF0) -- CPU_ReadMem(16 bytes @ 0xE00FFFE0)ROMTbl 0 [0]: F00FF000, CID: B105100D, PID: 000BB471 ROM TableROMTbl 1 @ E00FF000 -- CPU_ReadMem(16 bytes @ 0xE00FF000) -- CPU_ReadMem(16 bytes @ 0xE000EFF0) -- CPU_ReadMem(16 bytes @ 0xE000EFE0)
ROMTbl 1 [0]: FFF0F000, CID: B105E00D, PID: 000BB008 SCS -- CPU_ReadMem(16 bytes @ 0xE0001FF0) -- CPU_ReadMem(16 bytes @ 0xE0001FE0)ROMTbl 1 [1]: FFF02000, CID: B105E00D, PID: 000BB00A DWT -- CPU_ReadMem(16 bytes @ 0xE0002FF0) -- CPU_ReadMem(16 bytes @ 0xE0002FE0)ROMTbl 1 [2]: FFF03000, CID: B105E00D, PID: 000BB00B FPB -- CPU_ReadMem(16 bytes @ 0xF0002FF0) -- CPU_ReadMem(16 bytes @ 0xF0002FE0)ROMTbl 0 [1]: 00002000, CID: B105900D, PID: 000BB9A3 ??? >0x35 TIF>  returns 0x0BB11477 (0068ms, 0607ms total)
T2600 000:629 JLINK_GetDLLVersion()  returns 51200 (0000ms, 0607ms total)
T2600 000:629 JLINK_CORE_GetFound()  returns 0x60000FF (0000ms, 0607ms total)
T2600 000:629 JLINK_GetDebugInfo(0x100) -- Value=0xF0000000  returns 0x00 (0000ms, 0607ms total)
T2600 000:630 JLINK_GetDebugInfo(0x100) -- Value=0xF0000000  returns 0x00 (0000ms, 0607ms total)
T2600 000:630 JLINK_GetDebugInfo(0x101) -- Value=0x00000000  returns 0x00 (0000ms, 0607ms total)
T2600 000:630 JLINK_ReadMem (0xE0041FF0, 0x0010 Bytes, ...) -- CPU is running -- CPU_ReadMem(16 bytes @ 0xE0041FF0) - Data: 00 00 00 00 00 00 00 00 00 00 00 00 00 00 00 00  returns 0x00 (0001ms, 0608ms total)
T2600 000:631 JLINK_GetDebugInfo(0x102) -- Value=0x00000000  returns 0x00 (0000ms, 0608ms total)
T2600 000:631 JLINK_GetDebugInfo(0x103) -- Value=0x00000000  returns 0x00 (0000ms, 0608ms total)
T2600 000:631 JLINK_ReadMem (0xE0040FF0, 0x0010 Bytes, ...) -- CPU is running -- CPU_ReadMem(16 bytes @ 0xE0040FF0) - Data: 00 00 00 00 00 00 00 00 00 00 00 00 00 00 00 00  returns 0x00 (0001ms, 0609ms total)
T2600 000:632 JLINK_GetDebugInfo(0x104) -- Value=0xE0000000  returns 0x00 (0000ms, 0609ms total)
T2600 000:632 JLINK_GetDebugInfo(0x105) -- Value=0xE0001000  returns 0x00 (0000ms, 0609ms total)
T2600 000:632 JLINK_GetDebugInfo(0x106) -- Value=0xE0002000  returns 0x00 (0000ms, 0609ms total)
T2600 000:632 JLINK_GetDebugInfo(0x107) -- Value=0xE000E000  returns 0x00 (0000ms, 0609ms total)
T2600 000:632 JLINK_GetDebugInfo(0x10C) -- Value=0xE000EDF0  returns 0x00 (0000ms, 0609ms total)
T2600 000:632 JLINK_ReadMemU32(0xE000ED00, 0x0001 Items, ...) -- CPU is running -- CPU_ReadMem(4 bytes @ 0xE000ED00) - Data: 00 C2 0C 41  returns 0x01 (0001ms, 0610ms total)
T2600 000:633 JLINK_SetResetType(JLINKARM_RESET_TYPE_NORMAL)  returns JLINKARM_RESET_TYPE_NORMAL (0000ms, 0610ms total)
T2600 000:633 JLINK_Reset() -- CPU is running -- CPU_WriteMem(4 bytes @ 0xE000EDF0) -- CPU is running -- CPU_WriteMem(4 bytes @ 0xE000EDFC) >0x35 TIF> -- CPU is running -- CPU_WriteMem(4 bytes @ 0xE000ED0C) -- CPU is running -- CPU_ReadMem(4 bytes @ 0xE000EDF0) -- CPU is running -- CPU_ReadMem(4 bytes @ 0xE000EDF0) -- CPU is running -- CPU_WriteMem(4 bytes @ 0xE000EDF0) -- CPU is running -- CPU_WriteMem(4 bytes @ 0xE000EDFC) -- CPU is running -- CPU_ReadMem(4 bytes @ 0xE000EDF0)
 -- CPU_WriteMem(4 bytes @ 0xE0002000) -- CPU_ReadMem(4 bytes @ 0xE000EDFC) -- CPU_ReadMem(4 bytes @ 0xE0001000) -- CPU_WriteMem(4 bytes @ 0xE0001000) (0027ms, 0637ms total)
T2600 000:660 JLINK_Halt()  returns 0x00 (0000ms, 0637ms total)
T2600 000:660 JLINK_IsHalted()  returns TRUE (0000ms, 0637ms total)
T2600 000:660 JLINK_ReadMemU32(0xE000EDF0, 0x0001 Items, ...) -- CPU_ReadMem(4 bytes @ 0xE000EDF0) - Data: 03 00 03 00  returns 0x01 (0001ms, 0638ms total)
T2600 000:661 JLINK_WriteU32(0xE000EDF0, 0xA05F0003) -- CPU_WriteMem(4 bytes @ 0xE000EDF0)  returns 0x00 (0001ms, 0639ms total)
T2600 000:662 JLINK_WriteU32(0xE000EDFC, 0x01000000) -- CPU_WriteMem(4 bytes @ 0xE000EDFC)  returns 0x00 (0001ms, 0640ms total)
T2600 000:668 JLINK_GetHWStatus(...)  returns 0x00 (0000ms, 0640ms total)
T2600 000:672 JLINK_GetNumBPUnits(Type = 0xFFFFFF00)  returns 0x04 (0000ms, 0640ms total)
T2600 000:672 JLINK_GetNumBPUnits(Type = 0xF0)  returns 0x2000 (0000ms, 0640ms total)
T2600 000:672 JLINK_GetNumWPUnits()  returns 0x02 (0000ms, 0640ms total)
T2600 000:678 JLINK_GetSpeed()  returns 0x3E8 (0000ms, 0640ms total)
T2600 000:680 JLINK_ReadMemU32(0xE000E004, 0x0001 Items, ...) -- CPU_ReadMem(4 bytes @ 0xE000E004) - Data: 00 00 00 00  returns 0x01 (0001ms, 0641ms total)
T2600 000:681 JLINK_Halt()  returns 0x00 (0000ms, 0641ms total)
T2600 000:681 JLINK_IsHalted()  returns TRUE (0000ms, 0641ms total)
T2600 000:682 JLINK_WriteMem(0x20000000, 0x0478 Bytes, ...) - Data: 00 BE 0A E0 0D 78 2D 06 68 40 08 24 40 00 00 D3 ... -- CPU_WriteMem(1144 bytes @ 0x20000000)  returns 0x478 (0017ms, 0658ms total)
T2600 000:699 JLINK_WriteReg(R0, 0x00000000)  returns 0x00 (0000ms, 0658ms total)
T2600 000:699 JLINK_WriteReg(R1, 0x00F42400)  returns 0x00 (0000ms, 0658ms total)
T2600 000:699 JLINK_WriteReg(R2, 0x00000001)  returns 0x00 (0000ms, 0658ms total)
T2600 000:699 JLINK_WriteReg(R3, 0x00000000)  returns 0x00 (0000ms, 0658ms total)
T2600 000:699 JLINK_WriteReg(R4, 0x00000000)  returns 0x00 (0000ms, 0658ms total)
T2600 000:699 JLINK_WriteReg(R5, 0x00000000)  returns 0x00 (0000ms, 0658ms total)
T2600 000:699 JLINK_WriteReg(R6, 0x00000000)  returns 0x00 (0000ms, 0658ms total)
T2600 000:699 JLINK_WriteReg(R7, 0x00000000)  returns 0x00 (0000ms, 0658ms total)
T2600 000:699 JLINK_WriteReg(R8, 0x00000000)  returns 0x00 (0000ms, 0658ms total)
T2600 000:699 JLINK_WriteReg(R9, 0x20000474)  returns 0x00 (0000ms, 0658ms total)
T2600 000:699 JLINK_WriteReg(R10, 0x00000000)  returns 0x00 (0000ms, 0658ms total)
T2600 000:699 JLINK_WriteReg(R11, 0x00000000)  returns 0x00 (0000ms, 0658ms total)
T2600 000:699 JLINK_WriteReg(R12, 0x00000000)  returns 0x00 (0000ms, 0658ms total)
T2600 000:699 JLINK_WriteReg(R13 (SP), 0x20002000)  returns 0x00 (0000ms, 0658ms total)
T2600 000:699 JLINK_WriteReg(R14, 0x20000001)  returns 0x00 (0000ms, 0658ms total)
T2600 000:699 JLINK_WriteReg(R15 (PC), 0x20000028)  returns 0x00 (0000ms, 0658ms total)
T2600 000:699 JLINK_WriteReg(XPSR, 0x01000000)  returns 0x00 (0000ms, 0658ms total)
T2600 000:699 JLINK_WriteReg(MSP, 0x20002000)  returns 0x00 (0000ms, 0658ms total)
T2600 000:699 JLINK_WriteReg(PSP, 0x20002000)  returns 0x00 (0000ms, 0658ms total)
T2600 000:699 JLINK_WriteReg(CFBP, 0x00000000)  returns 0x00 (0000ms, 0658ms total)
T2600 000:699 JLINK_SetBPEx(Addr = 0x20000000, Type = 0xFFFFFFF2) -- CPU_ReadMem(2 bytes @ 0x20000000)  returns 0x00000001 (0001ms, 0659ms total)
T2600 000:700 JLINK_Go() -- CPU_WriteMem(2 bytes @ 0x20000000) -- CPU_ReadMem(4 bytes @ 0xE0001000) -- CPU_WriteMem(4 bytes @ 0xE0001000) -- CPU_WriteMem(4 bytes @ 0xE0002008) -- CPU_WriteMem(4 bytes @ 0xE000200C) -- CPU_WriteMem(4 bytes @ 0xE0002010) -- CPU_WriteMem(4 bytes @ 0xE0002014) -- CPU_WriteMem(4 bytes @ 0xE0001004) (0012ms, 0671ms total)
T2600 000:712 JLINK_IsHalted() -- CPU_ReadMem(2 bytes @ 0x20000000)  returns TRUE (0007ms, 0678ms total)
T2600 000:719 JLINK_ReadReg(R15 (PC))  returns 0x20000000 (0000ms, 0671ms total)
T2600 000:719 JLINK_ClrBPEx(BPHandle = 0x00000001)  returns 0x00 (0000ms, 0671ms total)
T2600 000:719 JLINK_ReadReg(R0)  returns 0x00000000 (0000ms, 0671ms total)
T2600 000:720 JLINK_WriteReg(R0, 0x00018000)  returns 0x00 (0000ms, 0671ms total)
T2600 000:720 JLINK_WriteReg(R1, 0x00000400)  returns 0x00 (0000ms, 0671ms total)
T2600 000:720 JLINK_WriteReg(R2, 0x000000FF)  returns 0x00 (0000ms, 0671ms total)
T2600 000:720 JLINK_WriteReg(R3, 0x00000000)  returns 0x00 (0000ms, 0671ms total)
T2600 000:720 JLINK_WriteReg(R4, 0x00000000)  returns 0x00 (0000ms, 0671ms total)
T2600 000:720 JLINK_WriteReg(R5, 0x00000000)  returns 0x00 (0000ms, 0671ms total)
T2600 000:720 JLINK_WriteReg(R6, 0x00000000)  returns 0x00 (0000ms, 0671ms total)
T2600 000:720 JLINK_WriteReg(R7, 0x00000000)  returns 0x00 (0000ms, 0671ms total)
T2600 000:720 JLINK_WriteReg(R8, 0x00000000)  returns 0x00 (0000ms, 0671ms total)
T2600 000:720 JLINK_WriteReg(R9, 0x20000474)  returns 0x00 (0000ms, 0671ms total)
T2600 000:720 JLINK_WriteReg(R10, 0x00000000)  returns 0x00 (0000ms, 0671ms total)
T2600 000:720 JLINK_WriteReg(R11, 0x00000000)  returns 0x00 (0000ms, 0671ms total)
T2600 000:720 JLINK_WriteReg(R12, 0x00000000)  returns 0x00 (0000ms, 0671ms total)
T2600 000:720 JLINK_WriteReg(R13 (SP), 0x20002000)  returns 0x00 (0000ms, 0671ms total)
T2600 000:720 JLINK_WriteReg(R14, 0x20000001)  returns 0x00 (0000ms, 0671ms total)
T2600 000:720 JLINK_WriteReg(R15 (PC), 0x20000188)  returns 0x00 (0000ms, 0671ms total)
T2600 000:720 JLINK_WriteReg(XPSR, 0x01000000)  returns 0x00 (0000ms, 0671ms total)
T2600 000:720 JLINK_WriteReg(MSP, 0x20002000)  returns 0x00 (0000ms, 0671ms total)
T2600 000:720 JLINK_WriteReg(PSP, 0x20002000)  returns 0x00 (0000ms, 0671ms total)
T2600 000:720 JLINK_WriteReg(CFBP, 0x00000000)  returns 0x00 (0000ms, 0671ms total)
T2600 000:720 JLINK_SetBPEx(Addr = 0x20000000, Type = 0xFFFFFFF2)  returns 0x00000002 (0000ms, 0671ms total)
T2600 000:720 JLINK_Go() -- CPU_ReadMem(4 bytes @ 0xE0001000) -- CPU_WriteMem(4 bytes @ 0xE0001000) (0005ms, 0676ms total)
T2600 000:725 JLINK_IsHalted() -- CPU_ReadMem(2 bytes @ 0x20000000)  returns TRUE (0007ms, 0683ms total)
T2600 000:732 JLINK_ReadReg(R15 (PC))  returns 0x20000000 (0000ms, 0676ms total)
T2600 000:732 JLINK_ClrBPEx(BPHandle = 0x00000002)  returns 0x00 (0000ms, 0676ms total)
T2600 000:732 JLINK_ReadReg(R0)  returns 0x00000000 (0000ms, 0676ms total)
T2600 000:733 JLINK_WriteReg(R0, 0x00018400)  returns 0x00 (0000ms, 0676ms total)
T2600 000:733 JLINK_WriteReg(R1, 0x00000400)  returns 0x00 (0000ms, 0676ms total)
T2600 000:733 JLINK_WriteReg(R2, 0x000000FF)  returns 0x00 (0000ms, 0676ms total)
T2600 000:733 JLINK_WriteReg(R3, 0x00000000)  returns 0x00 (0000ms, 0676ms total)
T2600 000:733 JLINK_WriteReg(R4, 0x00000000)  returns 0x00 (0000ms, 0676ms total)
T2600 000:733 JLINK_WriteReg(R5, 0x00000000)  returns 0x00 (0000ms, 0676ms total)
T2600 000:733 JLINK_WriteReg(R6, 0x00000000)  returns 0x00 (0000ms, 0676ms total)
T2600 000:733 JLINK_WriteReg(R7, 0x00000000)  returns 0x00 (0000ms, 0676ms total)
T2600 000:734 JLINK_WriteReg(R8, 0x00000000)  returns 0x00 (0000ms, 0676ms total)
T2600 000:734 JLINK_WriteReg(R9, 0x20000474)  returns 0x00 (0000ms, 0676ms total)
T2600 000:734 JLINK_WriteReg(R10, 0x00000000)  returns 0x00 (0000ms, 0676ms total)
T2600 000:734 JLINK_WriteReg(R11, 0x00000000)  returns 0x00 (0000ms, 0676ms total)
T2600 000:734 JLINK_WriteReg(R12, 0x00000000)  returns 0x00 (0000ms, 0676ms total)
T2600 000:734 JLINK_WriteReg(R13 (SP), 0x20002000)  returns 0x00 (0000ms, 0676ms total)
T2600 000:734 JLINK_WriteReg(R14, 0x20000001)  returns 0x00 (0000ms, 0676ms total)
T2600 000:734 JLINK_WriteReg(R15 (PC), 0x20000188)  returns 0x00 (0000ms, 0676ms total)
T2600 000:734 JLINK_WriteReg(XPSR, 0x01000000)  returns 0x00 (0000ms, 0676ms total)
T2600 000:734 JLINK_WriteReg(MSP, 0x20002000)  returns 0x00 (0000ms, 0676ms total)
T2600 000:734 JLINK_WriteReg(PSP, 0x20002000)  returns 0x00 (0000ms, 0676ms total)
T2600 000:734 JLINK_WriteReg(CFBP, 0x00000000)  returns 0x00 (0000ms, 0676ms total)
T2600 000:734 JLINK_SetBPEx(Addr = 0x20000000, Type = 0xFFFFFFF2)  returns 0x00000003 (0000ms, 0676ms total)
T2600 000:734 JLINK_Go() -- CPU_ReadMem(4 bytes @ 0xE0001000) -- CPU_WriteMem(4 bytes @ 0xE0001000) (0005ms, 0681ms total)
T2600 000:739 JLINK_IsHalted() -- CPU_ReadMem(2 bytes @ 0x20000000)  returns TRUE (0008ms, 0689ms total)
T2600 000:747 JLINK_ReadReg(R15 (PC))  returns 0x20000000 (0000ms, 0681ms total)
T2600 000:747 JLINK_ClrBPEx(BPHandle = 0x00000003)  returns 0x00 (0000ms, 0681ms total)
T2600 000:747 JLINK_ReadReg(R0)  returns 0x00000000 (0000ms, 0681ms total)
T2600 000:748 JLINK_WriteReg(R0, 0x00018800)  returns 0x00 (0000ms, 0681ms total)
T2600 000:748 JLINK_WriteReg(R1, 0x00000400)  returns 0x00 (0000ms, 0681ms total)
T2600 000:748 JLINK_WriteReg(R2, 0x000000FF)  returns 0x00 (0000ms, 0681ms total)
T2600 000:748 JLINK_WriteReg(R3, 0x00000000)  returns 0x00 (0000ms, 0681ms total)
T2600 000:748 JLINK_WriteReg(R4, 0x00000000)  returns 0x00 (0000ms, 0681ms total)
T2600 000:748 JLINK_WriteReg(R5, 0x00000000)  returns 0x00 (0000ms, 0681ms total)
T2600 000:748 JLINK_WriteReg(R6, 0x00000000)  returns 0x00 (0000ms, 0681ms total)
T2600 000:748 JLINK_WriteReg(R7, 0x00000000)  returns 0x00 (0000ms, 0681ms total)
T2600 000:748 JLINK_WriteReg(R8, 0x00000000)  returns 0x00 (0000ms, 0681ms total)
T2600 000:748 JLINK_WriteReg(R9, 0x20000474)  returns 0x00 (0000ms, 0681ms total)
T2600 000:748 JLINK_WriteReg(R10, 0x00000000)  returns 0x00 (0000ms, 0681ms total)
T2600 000:748 JLINK_WriteReg(R11, 0x00000000)  returns 0x00 (0000ms, 0681ms total)
T2600 000:748 JLINK_WriteReg(R12, 0x00000000)  returns 0x00 (0000ms, 0681ms total)
T2600 000:748 JLINK_WriteReg(R13 (SP), 0x20002000)  returns 0x00 (0000ms, 0681ms total)
T2600 000:748 JLINK_WriteReg(R14, 0x20000001)  returns 0x00 (0000ms, 0681ms total)
T2600 000:748 JLINK_WriteReg(R15 (PC), 0x20000188)  returns 0x00 (0000ms, 0681ms total)
T2600 000:748 JLINK_WriteReg(XPSR, 0x01000000)  returns 0x00 (0000ms, 0681ms total)
T2600 000:748 JLINK_WriteReg(MSP, 0x20002000)  returns 0x00 (0000ms, 0681ms total)
T2600 000:748 JLINK_WriteReg(PSP, 0x20002000)  returns 0x00 (0000ms, 0681ms total)
T2600 000:748 JLINK_WriteReg(CFBP, 0x00000000)  returns 0x00 (0000ms, 0681ms total)
T2600 000:748 JLINK_SetBPEx(Addr = 0x20000000, Type = 0xFFFFFFF2)  returns 0x00000004 (0000ms, 0681ms total)
T2600 000:748 JLINK_Go() -- CPU_ReadMem(4 bytes @ 0xE0001000) -- CPU_WriteMem(4 bytes @ 0xE0001000) (0006ms, 0687ms total)
T2600 000:754 JLINK_IsHalted() -- CPU_ReadMem(2 bytes @ 0x20000000)  returns TRUE (0008ms, 0695ms total)
T2600 000:762 JLINK_ReadReg(R15 (PC))  returns 0x20000000 (0000ms, 0687ms total)
T2600 000:762 JLINK_ClrBPEx(BPHandle = 0x00000004)  returns 0x00 (0000ms, 0687ms total)
T2600 000:762 JLINK_ReadReg(R0)  returns 0x00000000 (0001ms, 0688ms total)
T2600 000:764 JLINK_WriteReg(R0, 0x00000001)  returns 0x00 (0000ms, 0688ms total)
T2600 000:764 JLINK_WriteReg(R1, 0x00000400)  returns 0x00 (0000ms, 0688ms total)
T2600 000:764 JLINK_WriteReg(R2, 0x000000FF)  returns 0x00 (0000ms, 0688ms total)
T2600 000:764 JLINK_WriteReg(R3, 0x00000000)  returns 0x00 (0000ms, 0688ms total)
T2600 000:764 JLINK_WriteReg(R4, 0x00000000)  returns 0x00 (0000ms, 0688ms total)
T2600 000:764 JLINK_WriteReg(R5, 0x00000000)  returns 0x00 (0000ms, 0688ms total)
T2600 000:764 JLINK_WriteReg(R6, 0x00000000)  returns 0x00 (0000ms, 0688ms total)
T2600 000:764 JLINK_WriteReg(R7, 0x00000000)  returns 0x00 (0000ms, 0688ms total)
T2600 000:764 JLINK_WriteReg(R8, 0x00000000)  returns 0x00 (0000ms, 0688ms total)
T2600 000:764 JLINK_WriteReg(R9, 0x20000474)  returns 0x00 (0000ms, 0688ms total)
T2600 000:764 JLINK_WriteReg(R10, 0x00000000)  returns 0x00 (0000ms, 0688ms total)
T2600 000:764 JLINK_WriteReg(R11, 0x00000000)  returns 0x00 (0000ms, 0688ms total)
T2600 000:764 JLINK_WriteReg(R12, 0x00000000)  returns 0x00 (0000ms, 0688ms total)
T2600 000:764 JLINK_WriteReg(R13 (SP), 0x20002000)  returns 0x00 (0000ms, 0688ms total)
T2600 000:764 JLINK_WriteReg(R14, 0x20000001)  returns 0x00 (0000ms, 0688ms total)
T2600 000:764 JLINK_WriteReg(R15 (PC), 0x20000058)  returns 0x00 (0000ms, 0688ms total)
T2600 000:764 JLINK_WriteReg(XPSR, 0x01000000)  returns 0x00 (0000ms, 0688ms total)
T2600 000:764 JLINK_WriteReg(MSP, 0x20002000)  returns 0x00 (0000ms, 0688ms total)
T2600 000:764 JLINK_WriteReg(PSP, 0x20002000)  returns 0x00 (0000ms, 0688ms total)
T2600 000:764 JLINK_WriteReg(CFBP, 0x00000000)  returns 0x00 (0000ms, 0688ms total)
T2600 000:764 JLINK_SetBPEx(Addr = 0x20000000, Type = 0xFFFFFFF2)  returns 0x00000005 (0000ms, 0688ms total)
T2600 000:764 JLINK_Go() -- CPU_ReadMem(4 bytes @ 0xE0001000) -- CPU_WriteMem(4 bytes @ 0xE0001000) (0005ms, 0693ms total)
T2600 000:769 JLINK_IsHalted() -- CPU_ReadMem(2 bytes @ 0x20000000)  returns TRUE (0009ms, 0702ms total)
T2600 000:778 JLINK_ReadReg(R15 (PC))  returns 0x20000000 (0000ms, 0693ms total)
T2600 000:778 JLINK_ClrBPEx(BPHandle = 0x00000005)  returns 0x00 (0000ms, 0693ms total)
T2600 000:778 JLINK_ReadReg(R0)  returns 0x00000000 (0000ms, 0693ms total)
T2600 000:833 JLINK_WriteMem(0x20000000, 0x0478 Bytes, ...) - Data: 00 BE 0A E0 0D 78 2D 06 68 40 08 24 40 00 00 D3 ... -- CPU_WriteMem(1144 bytes @ 0x20000000)  returns 0x478 (0017ms, 0710ms total)
T2600 000:850 JLINK_WriteReg(R0, 0x00000000)  returns 0x00 (0000ms, 0710ms total)
T2600 000:850 JLINK_WriteReg(R1, 0x00F42400)  returns 0x00 (0000ms, 0710ms total)
T2600 000:850 JLINK_WriteReg(R2, 0x00000002)  returns 0x00 (0000ms, 0710ms total)
T2600 000:850 JLINK_WriteReg(R3, 0x00000000)  returns 0x00 (0000ms, 0710ms total)
T2600 000:850 JLINK_WriteReg(R4, 0x00000000)  returns 0x00 (0000ms, 0710ms total)
T2600 000:850 JLINK_WriteReg(R5, 0x00000000)  returns 0x00 (0000ms, 0710ms total)
T2600 000:850 JLINK_WriteReg(R6, 0x00000000)  returns 0x00 (0000ms, 0710ms total)
T2600 000:850 JLINK_WriteReg(R7, 0x00000000)  returns 0x00 (0000ms, 0710ms total)
T2600 000:850 JLINK_WriteReg(R8, 0x00000000)  returns 0x00 (0000ms, 0710ms total)
T2600 000:850 JLINK_WriteReg(R9, 0x20000474)  returns 0x00 (0000ms, 0710ms total)
T2600 000:850 JLINK_WriteReg(R10, 0x00000000)  returns 0x00 (0000ms, 0710ms total)
T2600 000:850 JLINK_WriteReg(R11, 0x00000000)  returns 0x00 (0000ms, 0710ms total)
T2600 000:850 JLINK_WriteReg(R12, 0x00000000)  returns 0x00 (0000ms, 0710ms total)
T2600 000:850 JLINK_WriteReg(R13 (SP), 0x20002000)  returns 0x00 (0000ms, 0710ms total)
T2600 000:850 JLINK_WriteReg(R14, 0x20000001)  returns 0x00 (0000ms, 0710ms total)
T2600 000:850 JLINK_WriteReg(R15 (PC), 0x20000028)  returns 0x00 (0000ms, 0710ms total)
T2600 000:850 JLINK_WriteReg(XPSR, 0x01000000)  returns 0x00 (0000ms, 0710ms total)
T2600 000:850 JLINK_WriteReg(MSP, 0x20002000)  returns 0x00 (0000ms, 0710ms total)
T2600 000:850 JLINK_WriteReg(PSP, 0x20002000)  returns 0x00 (0000ms, 0710ms total)
T2600 000:850 JLINK_WriteReg(CFBP, 0x00000000)  returns 0x00 (0000ms, 0710ms total)
T2600 000:850 JLINK_SetBPEx(Addr = 0x20000000, Type = 0xFFFFFFF2) -- CPU_ReadMem(2 bytes @ 0x20000000)  returns 0x00000006 (0001ms, 0711ms total)
T2600 000:851 JLINK_Go() -- CPU_WriteMem(2 bytes @ 0x20000000) -- CPU_ReadMem(4 bytes @ 0xE0001000) -- CPU_WriteMem(4 bytes @ 0xE0001000) (0006ms, 0717ms total)
T2600 000:857 JLINK_IsHalted() -- CPU_ReadMem(2 bytes @ 0x20000000)  returns TRUE (0009ms, 0726ms total)
T2600 000:866 JLINK_ReadReg(R15 (PC))  returns 0x20000000 (0000ms, 0717ms total)
T2600 000:866 JLINK_ClrBPEx(BPHandle = 0x00000006)  returns 0x00 (0000ms, 0717ms total)
T2600 000:866 JLINK_ReadReg(R0)  returns 0x00000000 (0000ms, 0717ms total)
T2600 000:866 JLINK_WriteMem(0x20000478, 0x0388 Bytes, ...) - Data: 70 28 00 20 D5 80 01 00 EF 80 01 00 F1 80 01 00 ... -- CPU_WriteMem(904 bytes @ 0x20000478)  returns 0x388 (0013ms, 0730ms total)
T2600 000:879 JLINK_WriteMem(0x20000800, 0x0078 Bytes, ...) - Data: 03 49 00 23 4A 7A 4B 72 C9 89 01 60 10 46 70 47 ... -- CPU_WriteMem(120 bytes @ 0x20000800)  returns 0x78 (0002ms, 0732ms total)
T2600 000:881 JLINK_WriteReg(R0, 0x00018000)  returns 0x00 (0000ms, 0732ms total)
T2600 000:881 JLINK_WriteReg(R1, 0x00000400)  returns 0x00 (0000ms, 0732ms total)
T2600 000:881 JLINK_WriteReg(R2, 0x20000478)  returns 0x00 (0000ms, 0732ms total)
T2600 000:881 JLINK_WriteReg(R3, 0x00000000)  returns 0x00 (0000ms, 0732ms total)
T2600 000:881 JLINK_WriteReg(R4, 0x00000000)  returns 0x00 (0000ms, 0732ms total)
T2600 000:881 JLINK_WriteReg(R5, 0x00000000)  returns 0x00 (0000ms, 0732ms total)
T2600 000:881 JLINK_WriteReg(R6, 0x00000000)  returns 0x00 (0000ms, 0732ms total)
T2600 000:881 JLINK_WriteReg(R7, 0x00000000)  returns 0x00 (0000ms, 0732ms total)
T2600 000:881 JLINK_WriteReg(R8, 0x00000000)  returns 0x00 (0000ms, 0732ms total)
T2600 000:881 JLINK_WriteReg(R9, 0x20000474)  returns 0x00 (0000ms, 0732ms total)
T2600 000:881 JLINK_WriteReg(R10, 0x00000000)  returns 0x00 (0000ms, 0732ms total)
T2600 000:881 JLINK_WriteReg(R11, 0x00000000)  returns 0x00 (0000ms, 0732ms total)
T2600 000:881 JLINK_WriteReg(R12, 0x00000000)  returns 0x00 (0000ms, 0732ms total)
T2600 000:881 JLINK_WriteReg(R13 (SP), 0x20002000)  returns 0x00 (0000ms, 0732ms total)
T2600 000:881 JLINK_WriteReg(R14, 0x20000001)  returns 0x00 (0000ms, 0732ms total)
T2600 000:881 JLINK_WriteReg(R15 (PC), 0x200001C4)  returns 0x00 (0000ms, 0732ms total)
T2600 000:881 JLINK_WriteReg(XPSR, 0x01000000)  returns 0x00 (0000ms, 0732ms total)
T2600 000:881 JLINK_WriteReg(MSP, 0x20002000)  returns 0x00 (0000ms, 0732ms total)
T2600 000:881 JLINK_WriteReg(PSP, 0x20002000)  returns 0x00 (0000ms, 0732ms total)
T2600 000:881 JLINK_WriteReg(CFBP, 0x00000000)  returns 0x00 (0000ms, 0732ms total)
T2600 000:881 JLINK_SetBPEx(Addr = 0x20000000, Type = 0xFFFFFFF2)  returns 0x00000007 (0000ms, 0732ms total)
T2600 000:881 JLINK_Go() -- CPU_ReadMem(4 bytes @ 0xE0001000) -- CPU_WriteMem(4 bytes @ 0xE0001000) (0006ms, 0738ms total)
T2600 000:887 JLINK_IsHalted()  returns FALSE (0001ms, 0739ms total)
T2600 000:914 JLINK_IsHalted() -- CPU_ReadMem(2 bytes @ 0x20000000)  returns TRUE (0007ms, 0745ms total)
T2600 000:921 JLINK_ReadReg(R15 (PC))  returns 0x20000000 (0000ms, 0738ms total)
T2600 000:921 JLINK_ClrBPEx(BPHandle = 0x00000007)  returns 0x00 (0000ms, 0738ms total)
T2600 000:921 JLINK_ReadReg(R0)  returns 0x00000000 (0000ms, 0738ms total)
T2600 000:923 JLINK_WriteMem(0x20000478, 0x0388 Bytes, ...) - Data: 0A 20 48 70 01 20 70 47 04 20 00 20 00 80 00 40 ... -- CPU_WriteMem(904 bytes @ 0x20000478)  returns 0x388 (0013ms, 0751ms total)
T2600 000:936 JLINK_WriteMem(0x20000800, 0x0078 Bytes, ...) - Data: 05 22 12 02 84 18 61 60 C2 1D F9 32 11 64 51 64 ... -- CPU_WriteMem(120 bytes @ 0x20000800)  returns 0x78 (0002ms, 0753ms total)
T2600 000:938 JLINK_WriteReg(R0, 0x00018400)  returns 0x00 (0000ms, 0753ms total)
T2600 000:938 JLINK_WriteReg(R1, 0x00000400)  returns 0x00 (0000ms, 0753ms total)
T2600 000:938 JLINK_WriteReg(R2, 0x20000478)  returns 0x00 (0000ms, 0753ms total)
T2600 000:938 JLINK_WriteReg(R3, 0x00000000)  returns 0x00 (0000ms, 0753ms total)
T2600 000:938 JLINK_WriteReg(R4, 0x00000000)  returns 0x00 (0000ms, 0753ms total)
T2600 000:938 JLINK_WriteReg(R5, 0x00000000)  returns 0x00 (0000ms, 0753ms total)
T2600 000:938 JLINK_WriteReg(R6, 0x00000000)  returns 0x00 (0000ms, 0753ms total)
T2600 000:938 JLINK_WriteReg(R7, 0x00000000)  returns 0x00 (0000ms, 0753ms total)
T2600 000:938 JLINK_WriteReg(R8, 0x00000000)  returns 0x00 (0000ms, 0753ms total)
T2600 000:938 JLINK_WriteReg(R9, 0x20000474)  returns 0x00 (0000ms, 0753ms total)
T2600 000:938 JLINK_WriteReg(R10, 0x00000000)  returns 0x00 (0000ms, 0753ms total)
T2600 000:938 JLINK_WriteReg(R11, 0x00000000)  returns 0x00 (0000ms, 0753ms total)
T2600 000:938 JLINK_WriteReg(R12, 0x00000000)  returns 0x00 (0000ms, 0753ms total)
T2600 000:938 JLINK_WriteReg(R13 (SP), 0x20002000)  returns 0x00 (0000ms, 0753ms total)
T2600 000:938 JLINK_WriteReg(R14, 0x20000001)  returns 0x00 (0000ms, 0753ms total)
T2600 000:938 JLINK_WriteReg(R15 (PC), 0x200001C4)  returns 0x00 (0000ms, 0753ms total)
T2600 000:938 JLINK_WriteReg(XPSR, 0x01000000)  returns 0x00 (0000ms, 0753ms total)
T2600 000:938 JLINK_WriteReg(MSP, 0x20002000)  returns 0x00 (0000ms, 0753ms total)
T2600 000:938 JLINK_WriteReg(PSP, 0x20002000)  returns 0x00 (0000ms, 0753ms total)
T2600 000:938 JLINK_WriteReg(CFBP, 0x00000000)  returns 0x00 (0000ms, 0753ms total)
T2600 000:938 JLINK_SetBPEx(Addr = 0x20000000, Type = 0xFFFFFFF2)  returns 0x00000008 (0000ms, 0753ms total)
T2600 000:938 JLINK_Go() -- CPU_ReadMem(4 bytes @ 0xE0001000) -- CPU_WriteMem(4 bytes @ 0xE0001000) (0006ms, 0759ms total)
T2600 000:944 JLINK_IsHalted()  returns FALSE (0002ms, 0761ms total)
T2600 000:950 JLINK_IsHalted()  returns FALSE (0000ms, 0759ms total)
T2600 000:955 JLINK_IsHalted()  returns FALSE (0000ms, 0759ms total)
T2600 000:956 JLINK_IsHalted() -- CPU_ReadMem(2 bytes @ 0x20000000)  returns TRUE (0007ms, 0766ms total)
T2600 000:963 JLINK_ReadReg(R15 (PC))  returns 0x20000000 (0000ms, 0759ms total)
T2600 000:963 JLINK_ClrBPEx(BPHandle = 0x00000008)  returns 0x00 (0000ms, 0759ms total)
T2600 000:963 JLINK_ReadReg(R0)  returns 0x00000000 (0000ms, 0759ms total)
T2600 000:964 JLINK_WriteMem(0x20000478, 0x0388 Bytes, ...) - Data: E8 81 01 00 58 88 01 00 44 20 00 20 2C 08 00 00 ... -- CPU_WriteMem(904 bytes @ 0x20000478)  returns 0x388 (0012ms, 0771ms total)
T2600 000:977 JLINK_WriteMem(0x20000800, 0x0078 Bytes, ...) - Data: FF FF FF FF FF FF FF FF FF FF FF FF FF FF FF FF ... -- CPU_WriteMem(120 bytes @ 0x20000800)  returns 0x78 (0002ms, 0773ms total)
T2600 000:979 JLINK_WriteReg(R0, 0x00018800)  returns 0x00 (0000ms, 0773ms total)
T2600 000:979 JLINK_WriteReg(R1, 0x00000058)  returns 0x00 (0000ms, 0773ms total)
T2600 000:979 JLINK_WriteReg(R2, 0x20000478)  returns 0x00 (0000ms, 0773ms total)
T2600 000:979 JLINK_WriteReg(R3, 0x00000000)  returns 0x00 (0000ms, 0773ms total)
T2600 000:979 JLINK_WriteReg(R4, 0x00000000)  returns 0x00 (0000ms, 0773ms total)
T2600 000:979 JLINK_WriteReg(R5, 0x00000000)  returns 0x00 (0000ms, 0773ms total)
T2600 000:979 JLINK_WriteReg(R6, 0x00000000)  returns 0x00 (0000ms, 0773ms total)
T2600 000:979 JLINK_WriteReg(R7, 0x00000000)  returns 0x00 (0000ms, 0773ms total)
T2600 000:979 JLINK_WriteReg(R8, 0x00000000)  returns 0x00 (0000ms, 0773ms total)
T2600 000:979 JLINK_WriteReg(R9, 0x20000474)  returns 0x00 (0000ms, 0773ms total)
T2600 000:979 JLINK_WriteReg(R10, 0x00000000)  returns 0x00 (0000ms, 0773ms total)
T2600 000:979 JLINK_WriteReg(R11, 0x00000000)  returns 0x00 (0000ms, 0773ms total)
T2600 000:979 JLINK_WriteReg(R12, 0x00000000)  returns 0x00 (0000ms, 0773ms total)
T2600 000:979 JLINK_WriteReg(R13 (SP), 0x20002000)  returns 0x00 (0000ms, 0773ms total)
T2600 000:979 JLINK_WriteReg(R14, 0x20000001)  returns 0x00 (0000ms, 0773ms total)
T2600 000:979 JLINK_WriteReg(R15 (PC), 0x200001C4)  returns 0x00 (0000ms, 0773ms total)
T2600 000:979 JLINK_WriteReg(XPSR, 0x01000000)  returns 0x00 (0000ms, 0773ms total)
T2600 000:979 JLINK_WriteReg(MSP, 0x20002000)  returns 0x00 (0000ms, 0773ms total)
T2600 000:979 JLINK_WriteReg(PSP, 0x20002000)  returns 0x00 (0000ms, 0773ms total)
T2600 000:979 JLINK_WriteReg(CFBP, 0x00000000)  returns 0x00 (0000ms, 0773ms total)
T2600 000:979 JLINK_SetBPEx(Addr = 0x20000000, Type = 0xFFFFFFF2)  returns 0x00000009 (0000ms, 0773ms total)
T2600 000:979 JLINK_Go() -- CPU_ReadMem(4 bytes @ 0xE0001000) -- CPU_WriteMem(4 bytes @ 0xE0001000) (0005ms, 0778ms total)
T2600 000:984 JLINK_IsHalted()  returns FALSE (0001ms, 0779ms total)
T2600 000:987 JLINK_IsHalted() -- CPU_ReadMem(2 bytes @ 0x20000000)  returns TRUE (0007ms, 0785ms total)
T2600 000:994 JLINK_ReadReg(R15 (PC))  returns 0x20000000 (0000ms, 0778ms total)
T2600 000:994 JLINK_ClrBPEx(BPHandle = 0x00000009)  returns 0x00 (0000ms, 0778ms total)
T2600 000:994 JLINK_ReadReg(R0)  returns 0x00000000 (0000ms, 0778ms total)
T2600 000:994 JLINK_WriteReg(R0, 0x00000002)  returns 0x00 (0000ms, 0778ms total)
T2600 000:994 JLINK_WriteReg(R1, 0x00000058)  returns 0x00 (0000ms, 0778ms total)
T2600 000:994 JLINK_WriteReg(R2, 0x20000478)  returns 0x00 (0000ms, 0778ms total)
T2600 000:994 JLINK_WriteReg(R3, 0x00000000)  returns 0x00 (0000ms, 0778ms total)
T2600 000:994 JLINK_WriteReg(R4, 0x00000000)  returns 0x00 (0000ms, 0778ms total)
T2600 000:994 JLINK_WriteReg(R5, 0x00000000)  returns 0x00 (0000ms, 0778ms total)
T2600 000:994 JLINK_WriteReg(R6, 0x00000000)  returns 0x00 (0000ms, 0778ms total)
T2600 000:994 JLINK_WriteReg(R7, 0x00000000)  returns 0x00 (0000ms, 0778ms total)
T2600 000:994 JLINK_WriteReg(R8, 0x00000000)  returns 0x00 (0000ms, 0778ms total)
T2600 000:994 JLINK_WriteReg(R9, 0x20000474)  returns 0x00 (0000ms, 0778ms total)
T2600 000:994 JLINK_WriteReg(R10, 0x00000000)  returns 0x00 (0000ms, 0778ms total)
T2600 000:994 JLINK_WriteReg(R11, 0x00000000)  returns 0x00 (0000ms, 0778ms total)
T2600 000:994 JLINK_WriteReg(R12, 0x00000000)  returns 0x00 (0000ms, 0778ms total)
T2600 000:994 JLINK_WriteReg(R13 (SP), 0x20002000)  returns 0x00 (0000ms, 0778ms total)
T2600 000:994 JLINK_WriteReg(R14, 0x20000001)  returns 0x00 (0000ms, 0778ms total)
T2600 000:994 JLINK_WriteReg(R15 (PC), 0x20000058)  returns 0x00 (0000ms, 0778ms total)
T2600 000:994 JLINK_WriteReg(XPSR, 0x01000000)  returns 0x00 (0000ms, 0778ms total)
T2600 000:994 JLINK_WriteReg(MSP, 0x20002000)  returns 0x00 (0000ms, 0778ms total)
T2600 000:994 JLINK_WriteReg(PSP, 0x20002000)  returns 0x00 (0000ms, 0778ms total)
T2600 000:994 JLINK_WriteReg(CFBP, 0x00000000)  returns 0x00 (0000ms, 0778ms total)
T2600 000:994 JLINK_SetBPEx(Addr = 0x20000000, Type = 0xFFFFFFF2)  returns 0x0000000A (0000ms, 0778ms total)
T2600 000:994 JLINK_Go() -- CPU_ReadMem(4 bytes @ 0xE0001000) -- CPU_WriteMem(4 bytes @ 0xE0001000) (0006ms, 0784ms total)
T2600 001:000 JLINK_IsHalted() -- CPU_ReadMem(2 bytes @ 0x20000000)  returns TRUE (0007ms, 0791ms total)
T2600 001:008 JLINK_ReadReg(R15 (PC))  returns 0x20000000 (0000ms, 0784ms total)
T2600 001:008 JLINK_ClrBPEx(BPHandle = 0x0000000A)  returns 0x00 (0000ms, 0784ms total)
T2600 001:008 JLINK_ReadReg(R0)  returns 0x00000000 (0000ms, 0784ms total)
T2600 001:064 JLINK_WriteMem(0x20000000, 0x0478 Bytes, ...) - Data: 00 BE 0A E0 0D 78 2D 06 68 40 08 24 40 00 00 D3 ... -- CPU_WriteMem(1144 bytes @ 0x20000000)  returns 0x478 (0016ms, 0800ms total)
T2600 001:080 JLINK_WriteReg(R0, 0x00000000)  returns 0x00 (0000ms, 0800ms total)
T2600 001:080 JLINK_WriteReg(R1, 0x00F42400)  returns 0x00 (0000ms, 0800ms total)
T2600 001:080 JLINK_WriteReg(R2, 0x00000003)  returns 0x00 (0000ms, 0800ms total)
T2600 001:080 JLINK_WriteReg(R3, 0x00000000)  returns 0x00 (0000ms, 0800ms total)
T2600 001:080 JLINK_WriteReg(R4, 0x00000000)  returns 0x00 (0000ms, 0800ms total)
T2600 001:080 JLINK_WriteReg(R5, 0x00000000)  returns 0x00 (0000ms, 0800ms total)
T2600 001:080 JLINK_WriteReg(R6, 0x00000000)  returns 0x00 (0000ms, 0800ms total)
T2600 001:080 JLINK_WriteReg(R7, 0x00000000)  returns 0x00 (0000ms, 0800ms total)
T2600 001:080 JLINK_WriteReg(R8, 0x00000000)  returns 0x00 (0000ms, 0800ms total)
T2600 001:080 JLINK_WriteReg(R9, 0x20000474)  returns 0x00 (0000ms, 0800ms total)
T2600 001:080 JLINK_WriteReg(R10, 0x00000000)  returns 0x00 (0000ms, 0800ms total)
T2600 001:080 JLINK_WriteReg(R11, 0x00000000)  returns 0x00 (0000ms, 0800ms total)
T2600 001:080 JLINK_WriteReg(R12, 0x00000000)  returns 0x00 (0000ms, 0800ms total)
T2600 001:080 JLINK_WriteReg(R13 (SP), 0x20002000)  returns 0x00 (0000ms, 0800ms total)
T2600 001:080 JLINK_WriteReg(R14, 0x20000001)  returns 0x00 (0000ms, 0800ms total)
T2600 001:080 JLINK_WriteReg(R15 (PC), 0x20000028)  returns 0x00 (0000ms, 0800ms total)
T2600 001:080 JLINK_WriteReg(XPSR, 0x01000000)  returns 0x00 (0000ms, 0800ms total)
T2600 001:080 JLINK_WriteReg(MSP, 0x20002000)  returns 0x00 (0000ms, 0800ms total)
T2600 001:080 JLINK_WriteReg(PSP, 0x20002000)  returns 0x00 (0000ms, 0800ms total)
T2600 001:080 JLINK_WriteReg(CFBP, 0x00000000)  returns 0x00 (0000ms, 0800ms total)
T2600 001:080 JLINK_SetBPEx(Addr = 0x20000000, Type = 0xFFFFFFF2) -- CPU_ReadMem(2 bytes @ 0x20000000)  returns 0x0000000B (0001ms, 0801ms total)
T2600 001:081 JLINK_Go() -- CPU_WriteMem(2 bytes @ 0x20000000) -- CPU_ReadMem(4 bytes @ 0xE0001000) -- CPU_WriteMem(4 bytes @ 0xE0001000) (0007ms, 0808ms total)
T2600 001:088 JLINK_IsHalted() -- CPU_ReadMem(2 bytes @ 0x20000000)  returns TRUE (0008ms, 0816ms total)
T2600 001:096 JLINK_ReadReg(R15 (PC))  returns 0x20000000 (0000ms, 0808ms total)
T2600 001:096 JLINK_ClrBPEx(BPHandle = 0x0000000B)  returns 0x00 (0000ms, 0808ms total)
T2600 001:096 JLINK_ReadReg(R0)  returns 0x00000000 (0000ms, 0808ms total)
T2600 001:096 JLINK_WriteMem(0x20000478, 0x0388 Bytes, ...) - Data: 70 28 00 20 D5 80 01 00 EF 80 01 00 F1 80 01 00 ... -- CPU_WriteMem(904 bytes @ 0x20000478)  returns 0x388 (0013ms, 0821ms total)
T2600 001:109 JLINK_WriteMem(0x20000800, 0x0078 Bytes, ...) - Data: 03 49 00 23 4A 7A 4B 72 C9 89 01 60 10 46 70 47 ... -- CPU_WriteMem(120 bytes @ 0x20000800)  returns 0x78 (0003ms, 0824ms total)
T2600 001:112 JLINK_WriteReg(R0, 0x00018000)  returns 0x00 (0000ms, 0824ms total)
T2600 001:112 JLINK_WriteReg(R1, 0x00000400)  returns 0x00 (0000ms, 0824ms total)
T2600 001:112 JLINK_WriteReg(R2, 0x20000478)  returns 0x00 (0000ms, 0824ms total)
T2600 001:112 JLINK_WriteReg(R3, 0x00000000)  returns 0x00 (0000ms, 0824ms total)
T2600 001:112 JLINK_WriteReg(R4, 0x00000000)  returns 0x00 (0000ms, 0824ms total)
T2600 001:112 JLINK_WriteReg(R5, 0x00000000)  returns 0x00 (0000ms, 0824ms total)
T2600 001:112 JLINK_WriteReg(R6, 0x00000000)  returns 0x00 (0000ms, 0824ms total)
T2600 001:112 JLINK_WriteReg(R7, 0x00000000)  returns 0x00 (0000ms, 0824ms total)
T2600 001:112 JLINK_WriteReg(R8, 0x00000000)  returns 0x00 (0000ms, 0824ms total)
T2600 001:112 JLINK_WriteReg(R9, 0x20000474)  returns 0x00 (0000ms, 0824ms total)
T2600 001:112 JLINK_WriteReg(R10, 0x00000000)  returns 0x00 (0000ms, 0824ms total)
T2600 001:112 JLINK_WriteReg(R11, 0x00000000)  returns 0x00 (0000ms, 0824ms total)
T2600 001:112 JLINK_WriteReg(R12, 0x00000000)  returns 0x00 (0000ms, 0824ms total)
T2600 001:112 JLINK_WriteReg(R13 (SP), 0x20002000)  returns 0x00 (0000ms, 0824ms total)
T2600 001:112 JLINK_WriteReg(R14, 0x20000001)  returns 0x00 (0000ms, 0824ms total)
T2600 001:112 JLINK_WriteReg(R15 (PC), 0x200002B8)  returns 0x00 (0000ms, 0824ms total)
T2600 001:112 JLINK_WriteReg(XPSR, 0x01000000)  returns 0x00 (0000ms, 0824ms total)
T2600 001:112 JLINK_WriteReg(MSP, 0x20002000)  returns 0x00 (0000ms, 0824ms total)
T2600 001:112 JLINK_WriteReg(PSP, 0x20002000)  returns 0x00 (0000ms, 0824ms total)
T2600 001:112 JLINK_WriteReg(CFBP, 0x00000000)  returns 0x00 (0000ms, 0824ms total)
T2600 001:112 JLINK_SetBPEx(Addr = 0x20000000, Type = 0xFFFFFFF2)  returns 0x0000000C (0000ms, 0824ms total)
T2600 001:112 JLINK_Go() -- CPU_ReadMem(4 bytes @ 0xE0001000) -- CPU_WriteMem(4 bytes @ 0xE0001000) (0005ms, 0829ms total)
T2600 001:117 JLINK_IsHalted() -- CPU_ReadMem(2 bytes @ 0x20000000)  returns TRUE (0007ms, 0836ms total)
T2600 001:124 JLINK_ReadReg(R15 (PC))  returns 0x20000000 (0000ms, 0829ms total)
T2600 001:124 JLINK_ClrBPEx(BPHandle = 0x0000000C)  returns 0x00 (0000ms, 0829ms total)
T2600 001:124 JLINK_ReadReg(R0)  returns 0x00018400 (0000ms, 0829ms total)
T2600 001:124 JLINK_WriteMem(0x20000478, 0x0388 Bytes, ...) - Data: 0A 20 48 70 01 20 70 47 04 20 00 20 00 80 00 40 ... -- CPU_WriteMem(904 bytes @ 0x20000478)  returns 0x388 (0013ms, 0842ms total)
T2600 001:137 JLINK_WriteMem(0x20000800, 0x0078 Bytes, ...) - Data: 05 22 12 02 84 18 61 60 C2 1D F9 32 11 64 51 64 ... -- CPU_WriteMem(120 bytes @ 0x20000800)  returns 0x78 (0003ms, 0845ms total)
T2600 001:140 JLINK_WriteReg(R0, 0x00018400)  returns 0x00 (0000ms, 0845ms total)
T2600 001:140 JLINK_WriteReg(R1, 0x00000400)  returns 0x00 (0000ms, 0845ms total)
T2600 001:140 JLINK_WriteReg(R2, 0x20000478)  returns 0x00 (0000ms, 0845ms total)
T2600 001:140 JLINK_WriteReg(R3, 0x00000000)  returns 0x00 (0000ms, 0845ms total)
T2600 001:140 JLINK_WriteReg(R4, 0x00000000)  returns 0x00 (0000ms, 0845ms total)
T2600 001:140 JLINK_WriteReg(R5, 0x00000000)  returns 0x00 (0000ms, 0845ms total)
T2600 001:140 JLINK_WriteReg(R6, 0x00000000)  returns 0x00 (0000ms, 0845ms total)
T2600 001:140 JLINK_WriteReg(R7, 0x00000000)  returns 0x00 (0000ms, 0845ms total)
T2600 001:140 JLINK_WriteReg(R8, 0x00000000)  returns 0x00 (0000ms, 0845ms total)
T2600 001:140 JLINK_WriteReg(R9, 0x20000474)  returns 0x00 (0000ms, 0845ms total)
T2600 001:140 JLINK_WriteReg(R10, 0x00000000)  returns 0x00 (0000ms, 0845ms total)
T2600 001:140 JLINK_WriteReg(R11, 0x00000000)  returns 0x00 (0000ms, 0845ms total)
T2600 001:140 JLINK_WriteReg(R12, 0x00000000)  returns 0x00 (0000ms, 0845ms total)
T2600 001:140 JLINK_WriteReg(R13 (SP), 0x20002000)  returns 0x00 (0000ms, 0845ms total)
T2600 001:140 JLINK_WriteReg(R14, 0x20000001)  returns 0x00 (0000ms, 0845ms total)
T2600 001:140 JLINK_WriteReg(R15 (PC), 0x200002B8)  returns 0x00 (0000ms, 0845ms total)
T2600 001:140 JLINK_WriteReg(XPSR, 0x01000000)  returns 0x00 (0000ms, 0845ms total)
T2600 001:140 JLINK_WriteReg(MSP, 0x20002000)  returns 0x00 (0000ms, 0845ms total)
T2600 001:140 JLINK_WriteReg(PSP, 0x20002000)  returns 0x00 (0000ms, 0845ms total)
T2600 001:140 JLINK_WriteReg(CFBP, 0x00000000)  returns 0x00 (0000ms, 0845ms total)
T2600 001:140 JLINK_SetBPEx(Addr = 0x20000000, Type = 0xFFFFFFF2)  returns 0x0000000D (0000ms, 0845ms total)
T2600 001:140 JLINK_Go() -- CPU_ReadMem(4 bytes @ 0xE0001000) -- CPU_WriteMem(4 bytes @ 0xE0001000) (0006ms, 0851ms total)
T2600 001:146 JLINK_IsHalted() -- CPU_ReadMem(2 bytes @ 0x20000000)  returns TRUE (0007ms, 0858ms total)
T2600 001:153 JLINK_ReadReg(R15 (PC))  returns 0x20000000 (0000ms, 0851ms total)
T2600 001:153 JLINK_ClrBPEx(BPHandle = 0x0000000D)  returns 0x00 (0000ms, 0851ms total)
T2600 001:153 JLINK_ReadReg(R0)  returns 0x00018800 (0000ms, 0851ms total)
T2600 001:155 JLINK_WriteMem(0x20000478, 0x0388 Bytes, ...) - Data: E8 81 01 00 58 88 01 00 44 20 00 20 2C 08 00 00 ... -- CPU_WriteMem(904 bytes @ 0x20000478)  returns 0x388 (0012ms, 0863ms total)
T2600 001:168 JLINK_WriteMem(0x20000800, 0x0078 Bytes, ...) - Data: 00 00 00 00 00 00 00 00 00 00 00 00 00 00 00 00 ... -- CPU_WriteMem(120 bytes @ 0x20000800)  returns 0x78 (0002ms, 0865ms total)
T2600 001:170 JLINK_WriteReg(R0, 0x00018800)  returns 0x00 (0000ms, 0865ms total)
T2600 001:170 JLINK_WriteReg(R1, 0x00000058)  returns 0x00 (0000ms, 0865ms total)
T2600 001:170 JLINK_WriteReg(R2, 0x20000478)  returns 0x00 (0000ms, 0865ms total)
T2600 001:170 JLINK_WriteReg(R3, 0x00000000)  returns 0x00 (0000ms, 0865ms total)
T2600 001:170 JLINK_WriteReg(R4, 0x00000000)  returns 0x00 (0000ms, 0865ms total)
T2600 001:170 JLINK_WriteReg(R5, 0x00000000)  returns 0x00 (0000ms, 0865ms total)
T2600 001:170 JLINK_WriteReg(R6, 0x00000000)  returns 0x00 (0000ms, 0865ms total)
T2600 001:170 JLINK_WriteReg(R7, 0x00000000)  returns 0x00 (0000ms, 0865ms total)
T2600 001:170 JLINK_WriteReg(R8, 0x00000000)  returns 0x00 (0000ms, 0865ms total)
T2600 001:170 JLINK_WriteReg(R9, 0x20000474)  returns 0x00 (0000ms, 0865ms total)
T2600 001:170 JLINK_WriteReg(R10, 0x00000000)  returns 0x00 (0000ms, 0865ms total)
T2600 001:170 JLINK_WriteReg(R11, 0x00000000)  returns 0x00 (0000ms, 0865ms total)
T2600 001:170 JLINK_WriteReg(R12, 0x00000000)  returns 0x00 (0000ms, 0865ms total)
T2600 001:170 JLINK_WriteReg(R13 (SP), 0x20002000)  returns 0x00 (0000ms, 0865ms total)
T2600 001:170 JLINK_WriteReg(R14, 0x20000001)  returns 0x00 (0000ms, 0865ms total)
T2600 001:170 JLINK_WriteReg(R15 (PC), 0x200002B8)  returns 0x00 (0000ms, 0865ms total)
T2600 001:170 JLINK_WriteReg(XPSR, 0x01000000)  returns 0x00 (0000ms, 0865ms total)
T2600 001:170 JLINK_WriteReg(MSP, 0x20002000)  returns 0x00 (0000ms, 0865ms total)
T2600 001:170 JLINK_WriteReg(PSP, 0x20002000)  returns 0x00 (0000ms, 0865ms total)
T2600 001:170 JLINK_WriteReg(CFBP, 0x00000000)  returns 0x00 (0000ms, 0865ms total)
T2600 001:170 JLINK_SetBPEx(Addr = 0x20000000, Type = 0xFFFFFFF2)  returns 0x0000000E (0000ms, 0865ms total)
T2600 001:170 JLINK_Go() -- CPU_ReadMem(4 bytes @ 0xE0001000) -- CPU_WriteMem(4 bytes @ 0xE0001000) (0005ms, 0870ms total)
T2600 001:175 JLINK_IsHalted() -- CPU_ReadMem(2 bytes @ 0x20000000)  returns TRUE (0008ms, 0878ms total)
T2600 001:183 JLINK_ReadReg(R15 (PC))  returns 0x20000000 (0000ms, 0870ms total)
T2600 001:183 JLINK_ClrBPEx(BPHandle = 0x0000000E)  returns 0x00 (0000ms, 0870ms total)
T2600 001:183 JLINK_ReadReg(R0)  returns 0x00018858 (0000ms, 0870ms total)
T2600 001:185 JLINK_WriteReg(R0, 0x00000003)  returns 0x00 (0000ms, 0870ms total)
T2600 001:185 JLINK_WriteReg(R1, 0x00000058)  returns 0x00 (0000ms, 0870ms total)
T2600 001:185 JLINK_WriteReg(R2, 0x20000478)  returns 0x00 (0000ms, 0870ms total)
T2600 001:185 JLINK_WriteReg(R3, 0x00000000)  returns 0x00 (0000ms, 0870ms total)
T2600 001:185 JLINK_WriteReg(R4, 0x00000000)  returns 0x00 (0000ms, 0870ms total)
T2600 001:185 JLINK_WriteReg(R5, 0x00000000)  returns 0x00 (0000ms, 0870ms total)
T2600 001:185 JLINK_WriteReg(R6, 0x00000000)  returns 0x00 (0000ms, 0870ms total)
T2600 001:185 JLINK_WriteReg(R7, 0x00000000)  returns 0x00 (0000ms, 0870ms total)
T2600 001:185 JLINK_WriteReg(R8, 0x00000000)  returns 0x00 (0000ms, 0870ms total)
T2600 001:185 JLINK_WriteReg(R9, 0x20000474)  returns 0x00 (0000ms, 0870ms total)
T2600 001:185 JLINK_WriteReg(R10, 0x00000000)  returns 0x00 (0000ms, 0870ms total)
T2600 001:185 JLINK_WriteReg(R11, 0x00000000)  returns 0x00 (0000ms, 0870ms total)
T2600 001:185 JLINK_WriteReg(R12, 0x00000000)  returns 0x00 (0000ms, 0870ms total)
T2600 001:185 JLINK_WriteReg(R13 (SP), 0x20002000)  returns 0x00 (0000ms, 0870ms total)
T2600 001:185 JLINK_WriteReg(R14, 0x20000001)  returns 0x00 (0000ms, 0870ms total)
T2600 001:185 JLINK_WriteReg(R15 (PC), 0x20000058)  returns 0x00 (0000ms, 0870ms total)
T2600 001:185 JLINK_WriteReg(XPSR, 0x01000000)  returns 0x00 (0000ms, 0870ms total)
T2600 001:185 JLINK_WriteReg(MSP, 0x20002000)  returns 0x00 (0000ms, 0870ms total)
T2600 001:185 JLINK_WriteReg(PSP, 0x20002000)  returns 0x00 (0000ms, 0870ms total)
T2600 001:185 JLINK_WriteReg(CFBP, 0x00000000)  returns 0x00 (0000ms, 0870ms total)
T2600 001:185 JLINK_SetBPEx(Addr = 0x20000000, Type = 0xFFFFFFF2)  returns 0x0000000F (0000ms, 0870ms total)
T2600 001:185 JLINK_Go() -- CPU_ReadMem(4 bytes @ 0xE0001000) -- CPU_WriteMem(4 bytes @ 0xE0001000) (0005ms, 0875ms total)
T2600 001:190 JLINK_IsHalted() -- CPU_ReadMem(2 bytes @ 0x20000000)  returns TRUE (0007ms, 0882ms total)
T2600 001:197 JLINK_ReadReg(R15 (PC))  returns 0x20000000 (0000ms, 0875ms total)
T2600 001:197 JLINK_ClrBPEx(BPHandle = 0x0000000F)  returns 0x00 (0000ms, 0875ms total)
T2600 001:197 JLINK_ReadReg(R0)  returns 0x00000000 (0000ms, 0875ms total)
T2600 001:250 JLINK_WriteMem(0x20000000, 0x0002 Bytes, ...) - Data: FE E7 -- CPU_WriteMem(2 bytes @ 0x20000000)  returns 0x02 (0001ms, 0876ms total)
T2600 001:251 JLINK_SetResetType(JLINKARM_RESET_TYPE_NORMAL)  returns JLINKARM_RESET_TYPE_NORMAL (0000ms, 0876ms total)
T2600 001:251 JLINK_Reset() -- CPU_ReadMem(4 bytes @ 0x20000800) -- CPU_WriteMem(4 bytes @ 0x20000800) -- CPU_WriteMem(4 bytes @ 0xE000EDF0) -- CPU_WriteMem(4 bytes @ 0xE000EDFC) >0x35 TIF> -- CPU_WriteMem(4 bytes @ 0xE000ED0C) -- CPU_ReadMem(4 bytes @ 0xE000EDF0) -- CPU_ReadMem(4 bytes @ 0xE000EDF0) -- CPU_WriteMem(4 bytes @ 0xE000EDF0) -- CPU_WriteMem(4 bytes @ 0xE000EDFC) -- CPU is running -- CPU_ReadMem(4 bytes @ 0xE000EDF0) -- CPU_WriteMem(4 bytes @ 0xE0002000) -- CPU_ReadMem(4 bytes @ 0xE000EDFC)
 -- CPU_ReadMem(4 bytes @ 0xE0001000) -- CPU_WriteMem(4 bytes @ 0xE0001000) (0030ms, 0906ms total)
T2600 001:281 JLINK_Go() -- CPU_ReadMem(4 bytes @ 0xE0001000) -- CPU_WriteMem(4 bytes @ 0xE0001000) -- CPU_WriteMem(4 bytes @ 0xE0002008) -- CPU_WriteMem(4 bytes @ 0xE000200C) -- CPU_WriteMem(4 bytes @ 0xE0002010) -- CPU_WriteMem(4 bytes @ 0xE0002014) -- CPU_WriteMem(4 bytes @ 0xE0001004) (0006ms, 0912ms total)
T2600 001:293 JLINK_Close() -- CPU is running -- CPU_WriteMem(4 bytes @ 0xE0002008) -- CPU is running -- CPU_WriteMem(4 bytes @ 0xE000200C) -- CPU is running -- CPU_WriteMem(4 bytes @ 0xE0002010) -- CPU is running -- CPU_WriteMem(4 bytes @ 0xE0002014) >0x42 TIF> >0x28 TIF> >0x35 TIF> (0009ms, 0921ms total)
T2600 001:293  (0009ms, 0921ms total)
T2600 001:293 Closed (0009ms, 0921ms total)
